#Digilent WaveForms Network Analyzer - Bode
#Device Name: Discovery2
#Serial Number: SN:210321B0E76B
#Date Time: 2023-10-18 15:45:16.671
#Start: 100 Hz
#Stop: 60000 Hz
#Steps: 200
#Wavegen: Wavegen C1
#Amplification: 1 X
#Settle: 10 ms
#MinPeriods: 16 
#Channel: Channel 1
#Range: 5.44828 V
#Offset: -0.00010025 V
#Relative: no
#Channel: Channel 2
#Range: 5.42508 V
#Offset: 0.000324114 V
#Relative: yes

Frequency (Hz),Channel 1 Magnitude (dB),Channel 2 Magnitude (dB),Channel 2 Phase (deg)
100,0.02959769528196114,-14.55735615412381,-93.46494670385722
103.2667618605337,0.02940990509653772,-14.27371777884408,-93.6344545338938
106.6402410516019,0.02870463533076889,-13.99611589869109,-93.84493378753848
110.1239237742567,0.03052634955730361,-13.72613852533076,-93.9795477817172
113.7214101154374,0.02732737548579491,-13.44309673619666,-94.11188846090687
117.4364177683496,0.02854960171432008,-13.17241751367393,-94.3492657908927
121.2727858743832,0.02808409464218249,-12.8838371220486,-94.4801073260091
125.2344789905342,0.02865138209647127,-12.60988497780118,-94.70498999402753
129.325591186435,0.02799590273454913,-12.33327022741819,-94.85681209856313
133.5503502752232,0.02990551261007001,-12.0604554962237,-95.07158150538538
137.9131221826233,0.02877309169711255,-11.78226763136018,-95.30610301837208
142.4184154587566,0.02832463632038454,-11.5045592998965,-95.46560705252455
147.0708859373397,0.03173839558074969,-11.23353687684834,-95.68991097048774
151.8753415470897,0.03063365569797628,-10.95867217978576,-95.92384285866223
156.8367472803053,0.02890286673071654,-10.67701876812608,-96.13358714293503
161.9602303237601,0.02900803235403104,-10.40676872812124,-96.31181233558408
167.2510853572091,0.02791264465203869,-10.12602599636035,-96.60232911273221
172.7147800249873,0.02854442696179134,-9.856757917477768,-96.79070674688529
178.356960586348,0.02966052101483502,-9.576159922696089,-97.02850722012067
184.1834577503901,0.02856298898306985,-9.306978609814191,-97.31029948269764
190.200292701592,0.02724367205662912,-9.032208286677635,-97.56954082967748
196.4136833221911,0.02842630477119681,-8.758048723920011,-97.83438977431362
202.83005061783,0.02986649912095509,-8.484189019244985,-98.1145606987069
209.4560253531142,0.02963799402815839,-8.214912701324145,-98.38820258850276
216.2984549039398,0.02888745443882795,-7.943044266997129,-98.71329493622886
223.3644103336653,0.02819694267569047,-7.67370610116633,-99.00576723620846
230.6611937004517,0.02901327145204601,-7.401527461020843,-99.31377371449511
238.1963456033097,0.02789189800071815,-7.125733813176006,-99.61936944908074
245.9776529746637,0.0304464686988747,-6.858879308787865,-99.95149567232846
254.0131571274758,0.02706821970613357,-6.583683005854343,-100.2941630413747
262.3111620652537,0.02869720913560803,-6.31644515184334,-100.6658373932095
270.8802430635243,0.02902787779486238,-6.049566533515018,-100.9764407086418
279.7292555316445,0.02785382730648364,-5.780136383670657,-101.3693247438667
288.8673441641071,0.02884507383730607,-5.511721233532308,-101.7544871329088
298.3039523907967,0.0289524257952377,-5.24807447662393,-102.1491494142307
308.0488321359641,0.02753924002697707,-4.978930425484748,-102.5426447246592
318.1120538960012,0.02992626433598303,-4.716808885631403,-102.9368719408427
328.5040171464361,0.02661084074470928,-4.449142532416486,-103.385225293345
339.235461088897,0.02578047632097218,-4.187693199761275,-103.7893059067848
350.3174757491549,0.02931071686639085,-3.923044344142643,-104.2384294329167
361.7615134377127,0.02949127728391579,-3.663599772005797,-104.7236757027277
373.5794005847853,0.02765611696302512,-3.39872412054712,-105.1573623967951
385.7833499618998,0.02881138343061798,-3.143069620368269,-105.6259232904105
398.3859733027439,0.02927231211971504,-2.883504451628855,-106.1535514034861
411.4002943363142,0.02737885546903122,-2.624512461041375,-106.6544200659981
424.8397622458162,0.03009920602627299,-2.374378935477838,-107.1760020755523
438.718265567245,0.03110336465873267,-2.124165915520932,-107.7166540988902
453.0501465419906,0.02601845682142297,-1.8655153951711,-108.2486706473013
467.8502159383164,0.02812052966091706,-1.616241022055878,-108.8494082199666
483.1337683570142,0.02842106035928903,-1.367456957983147,-109.4006013149766
498.9165980370598,0.02814002017166727,-1.119574132466272,-110.0169212853395
515.215015177607,0.02787076346079254,-0.8748741531786863,-110.5835441878076
532.045862793172,0.02997093300442026,-0.6349524362120956,-111.2281037501273
549.4265341194466,0.02780673280285034,-0.3897936316184342,-111.8531882918238
567.3749905877133,0.02799995967930532,-0.1547715468281873,-112.5139631350219
585.9097803864394,0.0291605663901684,0.08339249495561399,-113.1701639838677
605.0500576292402,0.02950729882291761,0.3154361910831475,-113.8824282307925
624.8156021490097,0.02868935670036164,0.5504788343543352,-114.5411268179083
645.226839938677,0.02645072890787156,0.7840982824848713,-115.2572212296866
666.3048642597211,0.02939801151454819,1.004760723321776,-115.9898904114159
688.0714574402384,0.02832276373379612,1.230544391881067,-116.7133530698896
710.5491133851147,0.03084853338257371,1.450183463215209,-117.4819499743712
733.7610608215398,0.02885815791778874,1.671085208419404,-118.2331351592866
757.7312873039052,0.02664629889496615,1.886915547573595,-118.9990857187997
782.4845640028808,0.02709815607068185,2.096640970417812,-119.8015564563903
808.0464713042898,0.02703883085266,2.304153544018074,-120.6052584057696
834.443425244247,0.03022292981175241,2.508216781278713,-121.4345836265248
861.7027048078573,0.02860175834837801,2.712590150641533,-122.2469275299486
889.8524801197071,0.02800138313980157,2.907219550754368,-123.0907488255355
918.9218415552717,0.02773755848488897,3.101106600823514,-123.9619643627288
948.940829803313,0.02958449960558129,3.290017861695703,-124.7967780015355
979.94046691036,0.0291727525703485,3.478648713200718,-125.6677180880442
1011.952788339323,0.02845217511446838,3.66038993896339,-126.5428963195261
1045.010876075399,0.02892729608977125,3.83624490940704,-127.43582180312
1079.148892813461,0.02690914680680883,4.011880568944635,-128.3252070031398
1114.402117262262,0.02533685013892314,4.182647911122827,-129.2184290286456
1150.806980601966,0.02664105942189673,4.347243350080089,-130.1449306706628
1188.401104132631,0.02870103984682608,4.505284068592458,-131.0557608255662
1227.223338152596,0.02769501068143831,4.663602871174042,-131.95659675092
1267.313802106934,0.02580145326525503,4.819115258568512,-132.8613833267462
1308.713926047443,0.02619689151611215,4.965910466057716,-133.8025916223779
1351.466493447055,0.02885290619392435,5.107021349237614,-134.728271278506
1395.615685412875,0.03015438133105929,5.241252475341767,-135.6411262886841
1441.207126343568,0.02855173176234404,5.376652865282558,-136.5488707116153
1488.287931078255,0.02828986148347148,5.507663533028317,-137.4857024894318
1536.906753585644,0.02533966299069684,5.63442829246681,-138.4118778037014
1587.113837243747,0.02965276971001737,5.752919275855295,-139.3159556374506
1638.96106676208,0.02930275634703482,5.871806517666423,-140.2175251397406
1692.50202180006,0.03071642929831997,5.980083487592005,-141.1240944527014
1747.792032336986,0.02894923715992415,6.090027073771988,-142.0204072468266
1804.888235850817,0.03107185019737737,6.193125511899709,-142.9096327683776
1863.849636364851,0.02894884480022466,6.290804589858599,-143.800358799235
1924.737165423314,0.02975834835077901,6.387716233727367,-144.6645313915272
1987.613745058881,0.03178243939624483,6.478863209696102,-145.5423722033462
2052.54435281719,0.02925709927504017,6.567319806881792,-146.3810081736453
2119.59608890556,0.03123567666081077,6.650211732385511,-147.2203138556386
2188.838245535291,0.03235983787668927,6.730164250632217,-148.0566683039699
2260.342378529214,0.02805752874732266,6.808110914294049,-148.8762524888244
2334.182381268487,0.02932477908757915,6.881687678338144,-149.7108359464544
2410.434561055063,0.03274382954287593,6.950650287252391,-150.4886046815426
2489.177717968732,0.03503864440653906,7.013099452340008,-151.2781774337662
2570.493226300237,0.03371020185703869,7.075560139289103,-152.0267006149706
2654.465118644616,0.0328218414447734,7.137927245780018,-152.7896288933446
2741.180172741671,0.03547410864795957,7.192193009926403,-153.5335311365158
2830.728001153308,0.03436480758055916,7.248053309487283,-154.2490150187571
2923.20114387043,0.03505845595434908,7.300534265549841,-154.9793260402064
3018.695163945075,0.03551579288969372,7.348304207971704,-155.6799817178851
3117.308746246609,0.03573180583604053,7.393488402864944,-156.3574204674164
3219.143799444075,0.0358901916467526,7.437774270703846,-157.049972150045
3324.305561320049,0.03344753664573273,7.481630964152743,-157.6821553549025
3432.902707524853,0.03694413150094133,7.519596414261544,-158.3275014797136
3545.047463883503,0.03880471323256095,7.554816177179075,-158.9490830558607
3660.855722371467,0.03747427564030541,7.592212872988501,-159.5721398089389
3780.447160879065,0.04053237155269317,7.620862775560898,-160.1648164843024
3903.945366888292,0.04090316786603612,7.654335935674781,-160.737816341552
4031.477965189869,0.04367078473744074,7.680106574105608,-161.3249570066954
4163.176749772513,0.04151734387124061,7.711071458262611,-161.8739744953629
4299.177820020689,0.04273562063539697,7.739444990017661,-162.4089111973142
4439.621721361649,0.03986599375009714,7.765040562769101,-162.9379164125683
4584.653590507062,0.04014347034863325,7.788750678726169,-163.4548188437129
4734.423305439335,0.04523772150767939,7.805968743245765,-163.9315568134907
4889.085640297645,0.04289827633455784,7.830733322729376,-164.4155208543212
5048.80042532372,0.04493194552061718,7.850489958583213,-164.8902006406204
5213.73271203266,0.04638179244897579,7.867328284673858,-165.3653906060108
5384.052943779514,0.04280886513439013,7.887895662284523,-165.8007623002322
5559.937131897847,0.0360804278366688,7.904845353399759,-166.2430227847092
5741.567037592333,0.03524484957983445,7.918418147116199,-166.6636014149419
5929.130359773376,0.04771062547364194,7.933185895716824,-167.0701004959449
6122.820929027777,0.0500493885019347,7.944930505331238,-167.4508998911962
6322.838907926032,0.04902085271557094,7.95904933018705,-167.8493159647844
6529.390997873147,0.04772769433440568,7.972550115391313,-168.2238894286193
6742.690652716786,0.04804732576873787,7.983444758099127,-168.6146759128302
6962.958299333509,0.04136388108614709,7.993860376404557,-168.9547423220553
7190.421565421004,0.03873895621281202,8.002224329769158,-169.2815105978954
7425.315514731768,0.04629158881819192,8.013478763816879,-169.6200572398915
7667.88288999132,0.05294540028327688,8.021019062214039,-169.9318645216212
7918.374363751942,0.05587858789036543,8.029927462449587,-170.2723263908049
8177.048797441268,0.05520020208322958,8.040360767071078,-170.5676765049473
8444.173508873311,0.0507415674441104,8.045970670421097,-170.8749147655461
8720.024548498477,0.05313609943019341,8.051297750921064,-171.156601497965
9004.886984678004,0.05976459856363177,8.059216144659105,-171.4322439568157
9299.055198277623,0.06084211917983501,8.06440255837796,-171.6708585024304
9602.833186884935,0.0484054658651675,8.0718986086904,-171.9797481971567
9916.534878964767,0.05681269460297843,8.08172801604498,-172.211705730668
10240.48445827731,0.06070278913887289,8.083397080297029,-172.4595449147272
10575.0166988942,0.05535742470819693,8.088066294482202,-172.6705081217603
10920.47731115874,0.06605799231783882,8.091575067419679,-172.9262898611227
11277.22329894791,0.06230166611338784,8.092562947576788,-173.1875781544042
11645.62332860516,0.06716231796730135,8.099102839206383,-173.3714138324802
12026.05810992545,0.06555260922166833,8.103114790375482,-173.5711491586447
12418.92078958612,0.06680386085040105,8.105383890922871,-173.8343604560218
12824.61735743021,0.06758219066088561,8.109639581109546,-173.9919773761574
13243.56706602212,0.06326628285163609,8.11497507502205,-174.1753902441281
13676.20286390914,0.0707743677917763,8.113882224824486,-174.3646314714205
14122.97184303654,0.06880363245322543,8.119889106304367,-174.5527029106099
14584.33570077878,0.06776239312888778,8.121700528250438,-174.6975986226718
15060.77121706401,0.0742104784634362,8.118597446483548,-174.901458711599
15552.7707470853,0.06282645698017005,8.124948309953746,-175.0620677081363
16060.84273010733,0.07410440488012307,8.124184722656823,-175.2278946520209
16585.51221489477,0.07424422200353048,8.127166856089147,-175.3818892797996
17127.32140230512,0.07934280359969278,8.127388277106995,-175.55165612142
17686.83020560664,0.0738190507989597,8.132806508483664,-175.6720871468794
18264.61682910075,0.05899044797589463,8.135912919076114,-175.8197911479444
18861.27836564645,0.07550918359898172,8.135956587015414,-175.9359383427048
19477.43141370448,0.06427240614089491,8.139587222557781,-176.101383314188
20113.71271453899,0.07382665397604191,8.130610947595491,-176.2294118059525
20770.77981023486,0.06494550816379269,8.14765972622263,-176.3125381366361
21449.31172321105,0.0708512468259455,8.142057855137514,-176.4739957019918
22150.00965793189,0.07808330913404052,8.144326341499511,-176.585005927352
22873.59772554175,0.08045211130539388,8.145714786370629,-176.6875103776256
23620.82369217165,0.08377349955732333,8.143205126167404,-176.8174215390522
24392.45975169141,0.08231161499373217,8.142407459771681,-176.9248307026152
25189.30332370571,0.06678278883926653,8.144349568307961,-177.0097118269599
26012.17787761868,0.08347323160268333,8.145437829506102,-177.1248058774166
26861.93378361892,0.0823764200280272,8.14321570798027,-177.1874343662267
27739.449191464,0.0840108528965616,8.156151904382675,-177.3338532785903
28645.63093797288,0.06840918428399846,8.154529480122157,-177.4012062111721
29581.4154841638,0.08441885687147101,8.145118776643869,-177.5295947804936
30547.76988300648,0.07876487119037248,8.144187744555056,-177.591273911079
31545.69277878815,0.09390673641321678,8.143813158522358,-177.6725128854547
32576.21543912674,0.09509696834382532,8.143190024068646,-177.7938266058256
33640.40282069743,0.08506826664133028,8.145315628079421,-177.8252987446624
34739.35466977386,0.08201740202887256,8.156763028682075,-177.934413260132
35874.20665872157,0.09119606415257217,8.153021016590944,-177.9768393079459
37046.13155961773,0.09419550701721612,8.156656436089053,-178.1078020538499
38256.34045621048,0.09507028497516805,8.147134518880229,-178.1497110590969
39506.08399546988,0.08890006397207242,8.159049159441327,-178.2205943077361
40796.65368002428,0.08619260824735145,8.164897406582131,-178.30968936176
42129.38320281734,0.08226916311849465,8.165529728236159,-178.3537899131804
43505.64982536509,0.09768800641578806,8.156036583000692,-178.3802101541338
44926.87580103746,0.09387379902352827,8.148419659461975,-178.4454949248691
46394.52984483511,0.08857090913346319,8.159370594353394,-178.5286691636884
47910.12865118008,0.09718971622779915,8.149212742217873,-178.6316393936122
49475.23846128947,0.09684715798492785,8.159064634676348,-178.6278234903486
51091.47668175099,0.08613133980898785,8.165648862052834,-178.7956765565226
52760.51355597391,0.1023256617515029,8.157761107292016,-178.8524193771032
54484.07389024219,0.1169925776412082,8.15132057308225,-178.8440675402252
56263.93883615359,0.09069028512679303,8.160370033281954,-178.9288019043408
58101.94773128708,0.09242063077047671,8.151791631241132,-179.0124267296681
60000,0.09965945638298183,8.160377755330657,-178.9974815719113
